 time            v(OUT+)         v(OUT-)         @R1[i]          @R2[i]         
 0.00000000e+00  3.03246139e+00  3.20242900e+00  5.35077225e-03  1.95141996e-03 
 1.00000000e-13  3.03246741e+00  3.20243608e+00  5.35065177e-03  1.95127846e-03 
 2.00000000e-13  3.03247307e+00  3.20244273e+00  5.35053868e-03  1.95114546e-03 
 4.00000000e-13  3.03248368e+00  3.20245523e+00  5.35032644e-03  1.95089546e-03 
 8.00000000e-13  3.03250117e+00  3.20247597e+00  5.34997661e-03  1.95048066e-03 
 1.60000000e-12  3.03252478e+00  3.20250471e+00  5.34950443e-03  1.94990578e-03 
 3.20000000e-12  3.03254450e+00  3.20253253e+00  5.34910995e-03  1.94934940e-03 
 6.40000000e-12  3.03253892e+00  3.20254302e+00  5.34922156e-03  1.94913959e-03 
 1.28000000e-11  3.03249037e+00  3.20253083e+00  5.35019255e-03  1.94938342e-03 
 2.28000000e-11  3.03241929e+00  3.20251108e+00  5.35161412e-03  1.94977837e-03 
 3.28000000e-11  3.03236976e+00  3.20249756e+00  5.35260489e-03  1.95004882e-03 
 4.28000000e-11  3.03233836e+00  3.20249071e+00  5.35323287e-03  1.95018573e-03 
 5.28000000e-11  3.03231857e+00  3.20248772e+00  5.35362856e-03  1.95024564e-03 
 6.28000000e-11  3.03230629e+00  3.20248703e+00  5.35387421e-03  1.95025932e-03 
 7.28000000e-11  3.03229864e+00  3.20248738e+00  5.35402722e-03  1.95025245e-03 
 8.28000000e-11  3.03229390e+00  3.20248816e+00  5.35412190e-03  1.95023684e-03 
 9.28000000e-11  3.03229097e+00  3.20248900e+00  5.35418069e-03  1.95022005e-03 
 1.02800000e-10  3.03228915e+00  3.20248976e+00  5.35421704e-03  1.95020478e-03 
 1.12800000e-10  3.03228802e+00  3.20249038e+00  5.35423959e-03  1.95019231e-03 
 1.22800000e-10  3.03228732e+00  3.20249087e+00  5.35425355e-03  1.95018259e-03 
 1.32800000e-10  3.03228689e+00  3.20249123e+00  5.35426220e-03  1.95017534e-03 
 1.42800000e-10  3.03228662e+00  3.20249150e+00  5.35426756e-03  1.95017003e-03 
 1.52800000e-10  3.03228646e+00  3.20249169e+00  5.35427089e-03  1.95016624e-03 
 1.62800000e-10  3.03228635e+00  3.20249182e+00  5.35427295e-03  1.95016356e-03 
 1.72800000e-10  3.03228629e+00  3.20249192e+00  5.35427423e-03  1.95016169e-03 
 1.82800000e-10  3.03228625e+00  3.20249198e+00  5.35427503e-03  1.95016039e-03 
 1.92800000e-10  3.03228622e+00  3.20249203e+00  5.35427552e-03  1.95015949e-03 
 2.02800000e-10  3.03228621e+00  3.20249206e+00  5.35427582e-03  1.95015888e-03 
 2.12800000e-10  3.03228620e+00  3.20249208e+00  5.35427601e-03  1.95015846e-03 
 2.22800000e-10  3.03228619e+00  3.20249209e+00  5.35427612e-03  1.95015817e-03 
 2.32800000e-10  3.03228619e+00  3.20249210e+00  5.35427619e-03  1.95015797e-03 
 2.42800000e-10  3.03228619e+00  3.20249211e+00  5.35427623e-03  1.95015784e-03 
 2.52800000e-10  3.03228619e+00  3.20249211e+00  5.35427625e-03  1.95015774e-03 
 2.62800000e-10  3.03228619e+00  3.20249212e+00  5.35427627e-03  1.95015768e-03 
 2.72800000e-10  3.03228619e+00  3.20249212e+00  5.35427627e-03  1.95015764e-03 
 2.82800000e-10  3.03228619e+00  3.20249212e+00  5.35427628e-03  1.95015760e-03 
 2.92800000e-10  3.03228619e+00  3.20249212e+00  5.35427628e-03  1.95015758e-03 
 3.02800000e-10  3.03228619e+00  3.20249212e+00  5.35427628e-03  1.95015757e-03 
 3.12800000e-10  3.03228619e+00  3.20249212e+00  5.35427627e-03  1.95015756e-03 
 3.22800000e-10  3.03228619e+00  3.20249212e+00  5.35427627e-03  1.95015755e-03 
 3.32800000e-10  3.03228619e+00  3.20249212e+00  5.35427627e-03  1.95015754e-03 
 3.42800000e-10  3.03228619e+00  3.20249212e+00  5.35427627e-03  1.95015754e-03 
 3.52800000e-10  3.03228619e+00  3.20249212e+00  5.35427627e-03  1.95015753e-03 
 3.62800000e-10  3.03228619e+00  3.20249212e+00  5.35427627e-03  1.95015753e-03 
 3.72800000e-10  3.03228619e+00  3.20249212e+00  5.35427627e-03  1.95015753e-03 
 3.82800000e-10  3.03228619e+00  3.20249212e+00  5.35427627e-03  1.95015753e-03 
 3.92800000e-10  3.03228619e+00  3.20249212e+00  5.35427627e-03  1.95015753e-03 
 4.02800000e-10  3.03228619e+00  3.20249212e+00  5.35427627e-03  1.95015752e-03 
 4.12800000e-10  3.03228619e+00  3.20249212e+00  5.35427627e-03  1.95015752e-03 
 4.22800000e-10  3.03228619e+00  3.20249212e+00  5.35427627e-03  1.95015752e-03 
 4.32800000e-10  3.03228619e+00  3.20249212e+00  5.35427626e-03  1.95015752e-03 
 4.42800000e-10  3.03228619e+00  3.20249212e+00  5.35427626e-03  1.95015752e-03 
 4.52800000e-10  3.03228619e+00  3.20249212e+00  5.35427626e-03  1.95015752e-03 
 4.62800000e-10  3.03228619e+00  3.20249212e+00  5.35427626e-03  1.95015752e-03 
 4.72800000e-10  3.03228619e+00  3.20249212e+00  5.35427626e-03  1.95015752e-03 
 4.82800000e-10  3.03228619e+00  3.20249212e+00  5.35427626e-03  1.95015752e-03 
 4.92800000e-10  3.03228619e+00  3.20249212e+00  5.35427626e-03  1.95015752e-03 
 5.02800000e-10  3.03228619e+00  3.20249212e+00  5.35427626e-03  1.95015752e-03 
 5.12800000e-10  3.03228619e+00  3.20249212e+00  5.35427626e-03  1.95015752e-03 
 5.22800000e-10  3.03228619e+00  3.20249212e+00  5.35427626e-03  1.95015752e-03 
 5.32800000e-10  3.03228619e+00  3.20249212e+00  5.35427626e-03  1.95015752e-03 
 5.42800000e-10  3.03228619e+00  3.20249212e+00  5.35427626e-03  1.95015752e-03 
 5.52800000e-10  3.03228619e+00  3.20249212e+00  5.35427626e-03  1.95015752e-03 
 5.62800000e-10  3.03228619e+00  3.20249212e+00  5.35427626e-03  1.95015752e-03 
 5.72800000e-10  3.03228619e+00  3.20249212e+00  5.35427626e-03  1.95015752e-03 
 5.82800000e-10  3.03228619e+00  3.20249212e+00  5.35427626e-03  1.95015752e-03 
 5.92800000e-10  3.03228619e+00  3.20249212e+00  5.35427626e-03  1.95015752e-03 
 6.02800000e-10  3.03228619e+00  3.20249212e+00  5.35427626e-03  1.95015752e-03 
 6.12800000e-10  3.03228619e+00  3.20249212e+00  5.35427626e-03  1.95015752e-03 
 6.22800000e-10  3.03228619e+00  3.20249212e+00  5.35427626e-03  1.95015752e-03 
 6.32800000e-10  3.03228619e+00  3.20249212e+00  5.35427626e-03  1.95015752e-03 
 6.42800000e-10  3.03228619e+00  3.20249212e+00  5.35427626e-03  1.95015752e-03 
 6.52800000e-10  3.03228619e+00  3.20249212e+00  5.35427626e-03  1.95015752e-03 
 6.62800000e-10  3.03228619e+00  3.20249212e+00  5.35427626e-03  1.95015752e-03 
 6.72800000e-10  3.03228619e+00  3.20249212e+00  5.35427626e-03  1.95015752e-03 
 6.82800000e-10  3.03228619e+00  3.20249212e+00  5.35427626e-03  1.95015752e-03 
 6.92800000e-10  3.03228619e+00  3.20249212e+00  5.35427626e-03  1.95015752e-03 
 7.02800000e-10  3.03228619e+00  3.20249212e+00  5.35427626e-03  1.95015752e-03 
 7.12800000e-10  3.03228619e+00  3.20249212e+00  5.35427626e-03  1.95015752e-03 
 7.22800000e-10  3.03228619e+00  3.20249212e+00  5.35427626e-03  1.95015752e-03 
 7.32800000e-10  3.03228619e+00  3.20249212e+00  5.35427626e-03  1.95015752e-03 
 7.42800000e-10  3.03228619e+00  3.20249212e+00  5.35427626e-03  1.95015752e-03 
 7.52800000e-10  3.03228619e+00  3.20249212e+00  5.35427626e-03  1.95015752e-03 
 7.62800000e-10  3.03228619e+00  3.20249212e+00  5.35427626e-03  1.95015752e-03 
 7.72800000e-10  3.03228619e+00  3.20249212e+00  5.35427626e-03  1.95015752e-03 
 7.82800000e-10  3.03228619e+00  3.20249212e+00  5.35427626e-03  1.95015752e-03 
 7.92800000e-10  3.03228619e+00  3.20249212e+00  5.35427626e-03  1.95015752e-03 
 8.02800000e-10  3.03228619e+00  3.20249212e+00  5.35427626e-03  1.95015752e-03 
 8.12800000e-10  3.03228619e+00  3.20249212e+00  5.35427626e-03  1.95015752e-03 
 8.22800000e-10  3.03228619e+00  3.20249212e+00  5.35427626e-03  1.95015752e-03 
 8.32800000e-10  3.03228619e+00  3.20249212e+00  5.35427626e-03  1.95015752e-03 
 8.42800000e-10  3.03228619e+00  3.20249212e+00  5.35427626e-03  1.95015752e-03 
 8.52800000e-10  3.03228619e+00  3.20249212e+00  5.35427626e-03  1.95015752e-03 
 8.62800000e-10  3.03228619e+00  3.20249212e+00  5.35427626e-03  1.95015752e-03 
 8.72800000e-10  3.03228619e+00  3.20249212e+00  5.35427626e-03  1.95015752e-03 
 8.82800000e-10  3.03228619e+00  3.20249212e+00  5.35427626e-03  1.95015752e-03 
 8.92800000e-10  3.03228619e+00  3.20249212e+00  5.35427626e-03  1.95015752e-03 
 9.02800000e-10  3.03228619e+00  3.20249212e+00  5.35427626e-03  1.95015752e-03 
 9.12800000e-10  3.03228619e+00  3.20249212e+00  5.35427626e-03  1.95015752e-03 
 9.22800000e-10  3.03228619e+00  3.20249212e+00  5.35427626e-03  1.95015752e-03 
 9.32800000e-10  3.03228619e+00  3.20249212e+00  5.35427626e-03  1.95015752e-03 
 9.42800000e-10  3.03228619e+00  3.20249212e+00  5.35427626e-03  1.95015752e-03 
 9.52800000e-10  3.03228619e+00  3.20249212e+00  5.35427626e-03  1.95015752e-03 
 9.62800000e-10  3.03228619e+00  3.20249212e+00  5.35427626e-03  1.95015752e-03 
 9.72800000e-10  3.03228619e+00  3.20249212e+00  5.35427626e-03  1.95015752e-03 
 9.82800000e-10  3.03228619e+00  3.20249212e+00  5.35427626e-03  1.95015752e-03 
 9.92800000e-10  3.03228619e+00  3.20249212e+00  5.35427626e-03  1.95015752e-03 
 1.00280000e-09  3.03228619e+00  3.20249212e+00  5.35427626e-03  1.95015752e-03 
 1.01280000e-09  3.03228619e+00  3.20249212e+00  5.35427626e-03  1.95015752e-03 
 1.02280000e-09  3.03228619e+00  3.20249212e+00  5.35427626e-03  1.95015752e-03 
 1.03280000e-09  3.03228619e+00  3.20249212e+00  5.35427626e-03  1.95015752e-03 
 1.04280000e-09  3.03228619e+00  3.20249212e+00  5.35427626e-03  1.95015752e-03 
 1.05280000e-09  3.03228619e+00  3.20249212e+00  5.35427626e-03  1.95015752e-03 
 1.06280000e-09  3.03228619e+00  3.20249212e+00  5.35427626e-03  1.95015752e-03 
 1.07280000e-09  3.03228619e+00  3.20249212e+00  5.35427626e-03  1.95015752e-03 
 1.08280000e-09  3.03228619e+00  3.20249212e+00  5.35427626e-03  1.95015752e-03 
 1.09280000e-09  3.03228619e+00  3.20249212e+00  5.35427626e-03  1.95015752e-03 
 1.10280000e-09  3.03228619e+00  3.20249212e+00  5.35427626e-03  1.95015752e-03 
 1.11280000e-09  3.03228619e+00  3.20249212e+00  5.35427626e-03  1.95015752e-03 
 1.12280000e-09  3.03228619e+00  3.20249212e+00  5.35427626e-03  1.95015752e-03 
 1.13280000e-09  3.03228619e+00  3.20249212e+00  5.35427626e-03  1.95015752e-03 
 1.14280000e-09  3.03228619e+00  3.20249212e+00  5.35427626e-03  1.95015752e-03 
 1.15280000e-09  3.03228619e+00  3.20249212e+00  5.35427626e-03  1.95015752e-03 
 1.16280000e-09  3.03228619e+00  3.20249212e+00  5.35427626e-03  1.95015752e-03 
 1.17280000e-09  3.03228619e+00  3.20249212e+00  5.35427626e-03  1.95015752e-03 
 1.18280000e-09  3.03228619e+00  3.20249212e+00  5.35427626e-03  1.95015752e-03 
 1.19280000e-09  3.03228619e+00  3.20249212e+00  5.35427626e-03  1.95015752e-03 
 1.20280000e-09  3.03228619e+00  3.20249212e+00  5.35427626e-03  1.95015752e-03 
 1.21280000e-09  3.03228619e+00  3.20249212e+00  5.35427626e-03  1.95015752e-03 
 1.22280000e-09  3.03228619e+00  3.20249212e+00  5.35427626e-03  1.95015752e-03 
 1.23280000e-09  3.03228619e+00  3.20249212e+00  5.35427626e-03  1.95015752e-03 
 1.24280000e-09  3.03228619e+00  3.20249212e+00  5.35427626e-03  1.95015752e-03 
 1.25280000e-09  3.03228619e+00  3.20249212e+00  5.35427626e-03  1.95015752e-03 
 1.26280000e-09  3.03228619e+00  3.20249212e+00  5.35427626e-03  1.95015752e-03 
 1.27280000e-09  3.03228619e+00  3.20249212e+00  5.35427626e-03  1.95015752e-03 
 1.28280000e-09  3.03228619e+00  3.20249212e+00  5.35427626e-03  1.95015752e-03 
 1.29280000e-09  3.03228619e+00  3.20249212e+00  5.35427626e-03  1.95015752e-03 
 1.30280000e-09  3.03228619e+00  3.20249212e+00  5.35427626e-03  1.95015752e-03 
 1.31280000e-09  3.03228619e+00  3.20249212e+00  5.35427626e-03  1.95015752e-03 
 1.32280000e-09  3.03228619e+00  3.20249212e+00  5.35427626e-03  1.95015752e-03 
 1.33280000e-09  3.03228619e+00  3.20249212e+00  5.35427626e-03  1.95015752e-03 
 1.34280000e-09  3.03228619e+00  3.20249212e+00  5.35427626e-03  1.95015752e-03 
 1.35280000e-09  3.03228619e+00  3.20249212e+00  5.35427626e-03  1.95015752e-03 
 1.36280000e-09  3.03228619e+00  3.20249212e+00  5.35427626e-03  1.95015752e-03 
 1.37280000e-09  3.03228619e+00  3.20249212e+00  5.35427626e-03  1.95015752e-03 
 1.38280000e-09  3.03228619e+00  3.20249212e+00  5.35427626e-03  1.95015752e-03 
 1.39280000e-09  3.03228619e+00  3.20249212e+00  5.35427626e-03  1.95015752e-03 
 1.40280000e-09  3.03228619e+00  3.20249212e+00  5.35427626e-03  1.95015752e-03 
 1.41280000e-09  3.03228619e+00  3.20249212e+00  5.35427626e-03  1.95015752e-03 
 1.42280000e-09  3.03228619e+00  3.20249212e+00  5.35427626e-03  1.95015752e-03 
 1.43280000e-09  3.03228619e+00  3.20249212e+00  5.35427626e-03  1.95015752e-03 
 1.44280000e-09  3.03228619e+00  3.20249212e+00  5.35427626e-03  1.95015752e-03 
 1.45280000e-09  3.03228619e+00  3.20249212e+00  5.35427626e-03  1.95015752e-03 
 1.46280000e-09  3.03228619e+00  3.20249212e+00  5.35427626e-03  1.95015752e-03 
 1.47280000e-09  3.03228619e+00  3.20249212e+00  5.35427626e-03  1.95015752e-03 
 1.48280000e-09  3.03228619e+00  3.20249212e+00  5.35427626e-03  1.95015752e-03 
 1.49280000e-09  3.03228619e+00  3.20249212e+00  5.35427626e-03  1.95015752e-03 
 1.50280000e-09  3.03228619e+00  3.20249212e+00  5.35427626e-03  1.95015752e-03 
 1.51280000e-09  3.03228619e+00  3.20249212e+00  5.35427626e-03  1.95015752e-03 
 1.52280000e-09  3.03228619e+00  3.20249212e+00  5.35427626e-03  1.95015752e-03 
 1.53280000e-09  3.03228619e+00  3.20249212e+00  5.35427626e-03  1.95015752e-03 
 1.54280000e-09  3.03228619e+00  3.20249212e+00  5.35427626e-03  1.95015752e-03 
 1.55280000e-09  3.03228619e+00  3.20249212e+00  5.35427626e-03  1.95015752e-03 
 1.56280000e-09  3.03228619e+00  3.20249212e+00  5.35427626e-03  1.95015752e-03 
 1.57280000e-09  3.03228619e+00  3.20249212e+00  5.35427626e-03  1.95015752e-03 
 1.58280000e-09  3.03228619e+00  3.20249212e+00  5.35427626e-03  1.95015752e-03 
 1.59280000e-09  3.03228619e+00  3.20249212e+00  5.35427626e-03  1.95015752e-03 
 1.60280000e-09  3.03228619e+00  3.20249212e+00  5.35427626e-03  1.95015752e-03 
 1.61280000e-09  3.03228619e+00  3.20249212e+00  5.35427626e-03  1.95015752e-03 
 1.62280000e-09  3.03228619e+00  3.20249212e+00  5.35427626e-03  1.95015752e-03 
 1.63280000e-09  3.03228619e+00  3.20249212e+00  5.35427626e-03  1.95015752e-03 
 1.64280000e-09  3.03228619e+00  3.20249212e+00  5.35427626e-03  1.95015752e-03 
 1.65280000e-09  3.03228619e+00  3.20249212e+00  5.35427626e-03  1.95015752e-03 
 1.66280000e-09  3.03228619e+00  3.20249212e+00  5.35427626e-03  1.95015752e-03 
 1.67280000e-09  3.03228619e+00  3.20249212e+00  5.35427626e-03  1.95015752e-03 
 1.68280000e-09  3.03228619e+00  3.20249212e+00  5.35427626e-03  1.95015752e-03 
 1.69280000e-09  3.03228619e+00  3.20249212e+00  5.35427626e-03  1.95015752e-03 
 1.70280000e-09  3.03228619e+00  3.20249212e+00  5.35427626e-03  1.95015752e-03 
 1.71280000e-09  3.03228619e+00  3.20249212e+00  5.35427626e-03  1.95015752e-03 
 1.72280000e-09  3.03228619e+00  3.20249212e+00  5.35427626e-03  1.95015752e-03 
 1.73280000e-09  3.03228619e+00  3.20249212e+00  5.35427626e-03  1.95015752e-03 
 1.74280000e-09  3.03228619e+00  3.20249212e+00  5.35427626e-03  1.95015752e-03 
 1.75280000e-09  3.03228619e+00  3.20249212e+00  5.35427626e-03  1.95015752e-03 
 1.76280000e-09  3.03228619e+00  3.20249212e+00  5.35427626e-03  1.95015752e-03 
 1.77280000e-09  3.03228619e+00  3.20249212e+00  5.35427626e-03  1.95015752e-03 
 1.78280000e-09  3.03228619e+00  3.20249212e+00  5.35427626e-03  1.95015752e-03 
 1.79280000e-09  3.03228619e+00  3.20249212e+00  5.35427626e-03  1.95015752e-03 
 1.80280000e-09  3.03228619e+00  3.20249212e+00  5.35427626e-03  1.95015752e-03 
 1.81280000e-09  3.03228619e+00  3.20249212e+00  5.35427626e-03  1.95015752e-03 
 1.82280000e-09  3.03228619e+00  3.20249212e+00  5.35427626e-03  1.95015752e-03 
 1.83280000e-09  3.03228619e+00  3.20249212e+00  5.35427626e-03  1.95015752e-03 
 1.84280000e-09  3.03228619e+00  3.20249212e+00  5.35427626e-03  1.95015752e-03 
 1.85280000e-09  3.03228619e+00  3.20249212e+00  5.35427626e-03  1.95015752e-03 
 1.86280000e-09  3.03228619e+00  3.20249212e+00  5.35427626e-03  1.95015752e-03 
 1.87280000e-09  3.03228619e+00  3.20249212e+00  5.35427626e-03  1.95015752e-03 
 1.88280000e-09  3.03228619e+00  3.20249212e+00  5.35427626e-03  1.95015752e-03 
 1.89280000e-09  3.03228619e+00  3.20249212e+00  5.35427626e-03  1.95015752e-03 
 1.90280000e-09  3.03228619e+00  3.20249212e+00  5.35427626e-03  1.95015752e-03 
 1.91280000e-09  3.03228619e+00  3.20249212e+00  5.35427626e-03  1.95015752e-03 
 1.92280000e-09  3.03228619e+00  3.20249212e+00  5.35427626e-03  1.95015752e-03 
 1.93280000e-09  3.03228619e+00  3.20249212e+00  5.35427626e-03  1.95015752e-03 
 1.94280000e-09  3.03228619e+00  3.20249212e+00  5.35427626e-03  1.95015752e-03 
 1.95280000e-09  3.03228619e+00  3.20249212e+00  5.35427626e-03  1.95015752e-03 
 1.96280000e-09  3.03228619e+00  3.20249212e+00  5.35427626e-03  1.95015752e-03 
 1.97280000e-09  3.03228619e+00  3.20249212e+00  5.35427626e-03  1.95015752e-03 
 1.98280000e-09  3.03228619e+00  3.20249212e+00  5.35427626e-03  1.95015752e-03 
 1.99280000e-09  3.03228619e+00  3.20249212e+00  5.35427626e-03  1.95015752e-03 
 2.00000000e-09  3.03228619e+00  3.20249212e+00  5.35427626e-03  1.95015752e-03 
